<Qucs Dataset 0.0.15>
<indep x 20>
  +5.00000000000e+00
  +7.36842105263e+00
  +9.73684210526e+00
  +1.21052631579e+01
  +1.44736842105e+01
  +1.68421052632e+01
  +1.92105263158e+01
  +2.15789473684e+01
  +2.39473684211e+01
  +2.63157894737e+01
  +2.86842105263e+01
  +3.10526315789e+01
  +3.34210526316e+01
  +3.57894736842e+01
  +3.81578947368e+01
  +4.05263157895e+01
  +4.28947368421e+01
  +4.52631578947e+01
  +4.76315789474e+01
  +5.00000000000e+01
</indep>
<dep V1.I x>
  -1.81818181818e-02
  -1.74311926606e-02
  -1.67400881057e-02
  -1.61016949153e-02
  -1.55102040816e-02
  -1.49606299213e-02
  -1.44486692015e-02
  -1.39705882353e-02
  -1.35231316726e-02
  -1.31034482759e-02
  -1.27090301003e-02
  -1.23376623377e-02
  -1.19873817035e-02
  -1.16564417178e-02
  -1.13432835821e-02
  -1.10465116279e-02
  -1.07648725212e-02
  -1.04972375691e-02
  -1.02425876011e-02
  -1.00000000000e-02
</dep>
<dep izeja.V x>
  +9.09090909091e-02
  +1.28440366972e-01
  +1.62995594714e-01
  +1.94915254237e-01
  +2.24489795918e-01
  +2.51968503937e-01
  +2.77566539924e-01
  +3.01470588235e-01
  +3.23843416370e-01
  +3.44827586207e-01
  +3.64548494983e-01
  +3.83116883117e-01
  +4.00630914826e-01
  +4.17177914110e-01
  +4.32835820896e-01
  +4.47674418605e-01
  +4.61756373938e-01
  +4.75138121547e-01
  +4.87870619946e-01
  +5.00000000000e-01
</dep>
<dep _net0.V x>
  +1.00000000000e+00
  +1.00000000000e+00
  +1.00000000000e+00
  +1.00000000000e+00
  +1.00000000000e+00
  +1.00000000000e+00
  +1.00000000000e+00
  +1.00000000000e+00
  +1.00000000000e+00
  +1.00000000000e+00
  +1.00000000000e+00
  +1.00000000000e+00
  +1.00000000000e+00
  +1.00000000000e+00
  +1.00000000000e+00
  +1.00000000000e+00
  +1.00000000000e+00
  +1.00000000000e+00
  +1.00000000000e+00
  +1.00000000000e+00
</dep>
